CITIFILE A.01.01
#Momentum: B.09.00.103 (*) 370.600 Mar  9 2011 
#Momentum Date and Time: Sat May 13 19:01:51 2023

NAME Momentum.SP

#  mode: RF    project: proj    reference: S_50

CONSTANT NBR_OF_PORTS 4

CONSTANT NORMALIZATION 1

VAR freq MAG 21

DATA S[1,1] RI
DATA S[1,2] RI
DATA S[1,3] RI
DATA S[1,4] RI
DATA S[2,1] RI
DATA S[2,2] RI
DATA S[2,3] RI
DATA S[2,4] RI
DATA S[3,1] RI
DATA S[3,2] RI
DATA S[3,3] RI
DATA S[3,4] RI
DATA S[4,1] RI
DATA S[4,2] RI
DATA S[4,3] RI
DATA S[4,4] RI
DATA PORTZ[1] RI
DATA PORTZ[2] RI
DATA PORTZ[3] RI
DATA PORTZ[4] RI

VAR_LIST_BEGIN
	 0
	 92592592.6
	 277777777.8
	 586419753.2
	 740740740.9
	 1203703704
	 1666666667
	 1898148148
	 2091049382
	 2283950617
	 2476851852
	 2669753086
	 3055555555
	 3333333333
	 3796296296
	 3888888888
	 4074074073
	 4444444444
	 4537037037
	 4845679012
	 5000000000
VAR_LIST_END

BEGIN
	-0.499940709,	-0
	-0.508208281,	-0.00779423591
	-0.556521469,	 0.00379753969
	-0.641984872,	 0.132368415
	-0.651341338,	 0.234528844
	-0.47046188,	 0.555305317
	 0.0252487796,	 0.579365694
	 0.162908035,	 0.301059852
	 0.0551127173,	 0.124863645
	-0.0575454644,	 0.100847752
	-0.108359275,	 0.119257504
	-0.122845825,	 0.133229659
	-0.133909169,	 0.103218048
	-0.177315278,	 0.0665001428
	-0.407594682,	 0.0176044671
	-0.482024456,	 0.0657900588
	-0.566739376,	 0.22696949
	-0.475679447,	 0.525401579
	-0.424998504,	 0.571127682
	-0.241732753,	 0.635374232
	-0.162239728,	 0.62110004
END
BEGIN
	 0.499987519,	-0
	 0.487762116,	-0.0888114903
	 0.411697312,	-0.236801663
	 0.218622527,	-0.361940557
	 0.125272591,	-0.376182117
	-0.0749337619,	-0.319272614
	-0.128492209,	-0.290045526
	-0.2582385,	-0.388609856
	-0.511939016,	-0.321363384
	-0.657621723,	-0.0682528979
	-0.640985777,	 0.199280124
	-0.530132478,	 0.414687599
	-0.133331587,	 0.683643179
	 0.262773034,	 0.641514837
	 0.479100777,	 0.0853013036
	 0.423109471,	 0.0169207155
	 0.3266585,	-0.0338307175
	 0.281960412,	-0.0570068555
	 0.286404282,	-0.072102479
	 0.299295012,	-0.165009667
	 0.287796778,	-0.23544383
END
BEGIN
	 0.499974312,	-0
	 0.487045793,	-0.0971842288
	 0.405818812,	-0.261944305
	 0.189991946,	-0.415874837
	 0.0757067953,	-0.444492764
	-0.263872273,	-0.40839655
	-0.640051326,	-0.0752450156
	-0.637465505,	 0.33716453
	-0.379618439,	 0.591274437
	-0.0877879557,	 0.650848914
	 0.161691865,	 0.606248508
	 0.36897919,	 0.486123036
	 0.573673592,	 0.0852766445
	 0.52579638,	-0.210884814
	 0.11031693,	-0.572535151
	-0.016629775,	-0.565917199
	-0.215955345,	-0.466923612
	-0.379595608,	-0.199922818
	-0.393996993,	-0.139159108
	-0.4030974,	 0.0580512561
	-0.381264301,	 0.160996615
END
BEGIN
	 0.499978877,	-0
	 0.488273919,	-0.0822626522
	 0.416785901,	-0.21787877
	 0.240040206,	-0.328816342
	 0.157127616,	-0.341280823
	-0.0360167403,	-0.308376522
	-0.226291467,	-0.160722943
	-0.193590154,	 0.0431071536
	-0.0133504125,	 0.0820233166
	 0.0702631644,	-0.0404502008
	 0.0120275852,	-0.141771191
	-0.0927262902,	-0.143928966
	-0.126729425,	 0.052992602
	 0.061985761,	 0.0915687156
	 0.064650736,	-0.285820133
	-0.0240683592,	-0.316036975
	-0.180588153,	-0.286576243
	-0.330845252,	-0.118700896
	-0.348976405,	-0.0746479162
	-0.377802505,	 0.0845718808
	-0.367183048,	 0.176709717
END
BEGIN
	 0.499987519,	-0
	 0.487762116,	-0.0888114903
	 0.411697312,	-0.236801663
	 0.218622527,	-0.361940557
	 0.125272591,	-0.376182117
	-0.0749337619,	-0.319272614
	-0.128492209,	-0.290045526
	-0.2582385,	-0.388609856
	-0.511939016,	-0.321363384
	-0.657621723,	-0.0682528979
	-0.640985777,	 0.199280124
	-0.530132478,	 0.414687599
	-0.133331587,	 0.683643179
	 0.262773034,	 0.641514837
	 0.479100777,	 0.0853013036
	 0.423109471,	 0.0169207154
	 0.3266585,	-0.0338307175
	 0.281960412,	-0.0570068555
	 0.286404282,	-0.0721024791
	 0.299295012,	-0.165009667
	 0.287796778,	-0.23544383
END
BEGIN
	-0.499940683,	-0
	-0.508206711,	-0.00774474525
	-0.556512262,	 0.00396247439
	-0.641902042,	 0.132779512
	-0.651197668,	 0.23511277
	-0.469469548,	 0.556803629
	 0.0287422049,	 0.578613364
	 0.162959101,	 0.297713382
	 0.0515825698,	 0.124895979
	-0.0593000992,	 0.105232025
	-0.106249639,	 0.12416646
	-0.118553787,	 0.135691137
	-0.133183109,	 0.101720602
	-0.179366476,	 0.068287151
	-0.404657185,	 0.0213220283
	-0.478774308,	 0.068676533
	-0.563709098,	 0.228791194
	-0.473029228,	 0.526699448
	-0.422357764,	 0.572327151
	-0.239228747,	 0.636207499
	-0.159894939,	 0.621828295
END
BEGIN
	 0.499978826,	-0
	 0.488269869,	-0.0822832752
	 0.416787915,	-0.217934246
	 0.240083894,	-0.329158532
	 0.157045736,	-0.341897526
	-0.0372257569,	-0.30906219
	-0.226327616,	-0.159767083
	-0.191545409,	 0.0422275437
	-0.0129518595,	 0.078126828
	 0.066768936,	-0.0438020379
	 0.00702729077,	-0.141272366
	-0.0954095735,	-0.139913129
	-0.122571432,	 0.0543186541
	 0.0642094252,	 0.0881636424
	 0.0618849743,	-0.285936726
	-0.0263452027,	-0.3151588
	-0.18146665,	-0.284784206
	-0.329736041,	-0.116880961
	-0.347445063,	-0.0728780569
	-0.37458433,	 0.0858050739
	-0.363030431,	 0.177164086
END
BEGIN
	 0.499974337,	-0
	 0.487036177,	-0.0972070604
	 0.40574845,	-0.26198281
	 0.189782121,	-0.415606701
	 0.0756153159,	-0.443870042
	-0.262134743,	-0.407430912
	-0.638335346,	-0.0762156199
	-0.635384923,	 0.337166679
	-0.375868511,	 0.589640846
	-0.0856667136,	 0.646697255
	 0.161177254,	 0.602533366
	 0.367893933,	 0.484104266
	 0.57272045,	 0.0831120112
	 0.523319359,	-0.211260439
	 0.111623928,	-0.573495661
	-0.0158557225,	-0.56787879
	-0.216920724,	-0.469440532
	-0.38220889,	-0.201152485
	-0.396774319,	-0.140114614
	-0.406538968,	 0.0579911813
	-0.385092813,	 0.161661567
END
BEGIN
	 0.499974312,	-0
	 0.487045793,	-0.0971842289
	 0.405818812,	-0.261944305
	 0.189991946,	-0.415874838
	 0.0757067952,	-0.444492764
	-0.263872273,	-0.40839655
	-0.640051327,	-0.0752450155
	-0.637465505,	 0.337164531
	-0.379618438,	 0.591274439
	-0.0877879537,	 0.650848913
	 0.161691865,	 0.606248504
	 0.368979185,	 0.486123032
	 0.573673577,	 0.0852766541
	 0.525796382,	-0.210884789
	 0.110316942,	-0.572535148
	-0.0166297649,	-0.565917197
	-0.215955335,	-0.466923609
	-0.379595596,	-0.199922816
	-0.393996981,	-0.139159107
	-0.403097386,	 0.0580512559
	-0.381264283,	 0.160996612
END
BEGIN
	 0.499978826,	-0
	 0.488269869,	-0.0822832752
	 0.416787915,	-0.217934246
	 0.240083894,	-0.329158532
	 0.157045736,	-0.341897525
	-0.0372257567,	-0.30906219
	-0.226327614,	-0.159767084
	-0.191545409,	 0.0422275421
	-0.0129518603,	 0.0781268277
	 0.0667689359,	-0.0438020378
	 0.00702728996,	-0.141272367
	-0.0954095774,	-0.139913128
	-0.122571426,	 0.054318665
	 0.0642094366,	 0.0881636375
	 0.0618849569,	-0.285936728
	-0.0263452217,	-0.315158796
	-0.181466667,	-0.284784192
	-0.329736047,	-0.11688094
	-0.347445068,	-0.0728780362
	-0.374584332,	 0.0858050931
	-0.363030433,	 0.177164106
END
BEGIN
	-0.499940646,	-0
	-0.508215714,	-0.00786732452
	-0.556486038,	 0.0035673875
	-0.641942372,	 0.131696902
	-0.651423251,	 0.233584389
	-0.471593933,	 0.553700678
	 0.0209449572,	 0.579181228
	 0.159630108,	 0.305420281
	 0.0572102123,	 0.129094801
	-0.0540760545,	 0.0997060485
	-0.109139449,	 0.11476556
	-0.128684045,	 0.130498286
	-0.138797307,	 0.109657604
	-0.176566845,	 0.0723762638
	-0.40822013,	 0.020418732
	-0.482614862,	 0.069199532
	-0.566347475,	 0.230953015
	-0.47371897,	 0.528378149
	-0.422880725,	 0.573783756
	-0.239282264,	 0.63718789
	-0.159553894,	 0.62255683
END
BEGIN
	 0.499987507,	-0
	 0.48780394,	-0.0887236136
	 0.411890503,	-0.236626915
	 0.219101846,	-0.361699992
	 0.125971262,	-0.375921367
	-0.0736973889,	-0.320166904
	-0.131984277,	-0.290853945
	-0.261955748,	-0.384083297
	-0.511762649,	-0.314966848
	-0.654937004,	-0.0626078968
	-0.636390652,	 0.204169368
	-0.523583623,	 0.417754451
	-0.12760858,	 0.681446118
	 0.26627709,	 0.638412955
	 0.479615946,	 0.082215366
	 0.423249579,	 0.0143855918
	 0.326789758,	-0.0353864464
	 0.282857208,	-0.0578581228
	 0.28752866,	-0.0728820597
	 0.301586706,	-0.165945079
	 0.290849836,	-0.237012311
END
BEGIN
	 0.499978877,	-0
	 0.488273919,	-0.0822626522
	 0.416785901,	-0.21787877
	 0.240040206,	-0.328816342
	 0.157127615,	-0.341280822
	-0.0360167401,	-0.308376521
	-0.226291465,	-0.160722943
	-0.193590154,	 0.043107152
	-0.0133504133,	 0.0820233163
	 0.0702631644,	-0.0404502008
	 0.0120275844,	-0.141771192
	-0.0927262942,	-0.143928966
	-0.12672942,	 0.0529926128
	 0.0619857722,	 0.0915687105
	 0.0646507186,	-0.285820134
	-0.0240683783,	-0.316036971
	-0.180588171,	-0.286576229
	-0.330845259,	-0.118700875
	-0.34897641,	-0.0746478955
	-0.377802508,	 0.0845719
	-0.36718305,	 0.176709736
END
BEGIN
	 0.499974337,	-0
	 0.487036177,	-0.0972070604
	 0.40574845,	-0.26198281
	 0.189782121,	-0.415606701
	 0.0756153158,	-0.443870043
	-0.262134743,	-0.407430912
	-0.638335346,	-0.0762156197
	-0.635384924,	 0.337166679
	-0.375868511,	 0.589640848
	-0.0856667116,	 0.646697254
	 0.161177253,	 0.602533363
	 0.367893928,	 0.484104262
	 0.572720436,	 0.0831120208
	 0.523319362,	-0.211260414
	 0.11162394,	-0.573495659
	-0.0158557124,	-0.567878787
	-0.216920715,	-0.469440529
	-0.382208878,	-0.201152483
	-0.396774308,	-0.140114612
	-0.406538953,	 0.0579911811
	-0.385092795,	 0.161661565
END
BEGIN
	 0.499987507,	-0
	 0.48780394,	-0.0887236136
	 0.411890503,	-0.236626915
	 0.219101846,	-0.361699992
	 0.125971262,	-0.375921367
	-0.0736973889,	-0.320166904
	-0.131984277,	-0.290853945
	-0.261955748,	-0.384083297
	-0.511762649,	-0.314966848
	-0.654937004,	-0.0626078968
	-0.636390652,	 0.204169368
	-0.523583623,	 0.417754451
	-0.12760858,	 0.681446118
	 0.26627709,	 0.638412955
	 0.479615946,	 0.082215366
	 0.423249579,	 0.0143855918
	 0.326789758,	-0.0353864464
	 0.282857208,	-0.0578581228
	 0.28752866,	-0.0728820597
	 0.301586706,	-0.165945079
	 0.290849836,	-0.237012312
END
BEGIN
	-0.499940721,	-0
	-0.508209622,	-0.00787006093
	-0.556429229,	 0.00349930159
	-0.640948524,	 0.131200364
	-0.649206207,	 0.232530757
	-0.465738348,	 0.549756505
	 0.024179542,	 0.578815743
	 0.160133429,	 0.307813648
	 0.0532519315,	 0.135304193
	-0.0590775764,	 0.110728708
	-0.112198691,	 0.125859226
	-0.130988321,	 0.136769804
	-0.147679983,	 0.104418759
	-0.190214556,	 0.0680234522
	-0.413093794,	 0.0169630581
	-0.487138233,	 0.0647610631
	-0.571400038,	 0.226372778
	-0.479912879,	 0.526428978
	-0.429460447,	 0.572472341
	-0.247246102,	 0.637524855
	-0.1680235,	 0.623110181
END
BEGIN
	 50 ,	 0 
	 50 ,	 0 
	 50 ,	 0 
	 50 ,	 0 
	 50 ,	 0 
	 50 ,	 0 
	 50 ,	 0 
	 50 ,	 0 
	 50 ,	 0 
	 50 ,	 0 
	 50 ,	 0 
	 50 ,	 0 
	 50 ,	 0 
	 50 ,	 0 
	 50 ,	 0 
	 50 ,	 0 
	 50 ,	 0 
	 50 ,	 0 
	 50 ,	 0 
	 50 ,	 0 
	 50 ,	 0 
END
BEGIN
	 50 ,	 0 
	 50 ,	 0 
	 50 ,	 0 
	 50 ,	 0 
	 50 ,	 0 
	 50 ,	 0 
	 50 ,	 0 
	 50 ,	 0 
	 50 ,	 0 
	 50 ,	 0 
	 50 ,	 0 
	 50 ,	 0 
	 50 ,	 0 
	 50 ,	 0 
	 50 ,	 0 
	 50 ,	 0 
	 50 ,	 0 
	 50 ,	 0 
	 50 ,	 0 
	 50 ,	 0 
	 50 ,	 0 
END
BEGIN
	 50 ,	 0 
	 50 ,	 0 
	 50 ,	 0 
	 50 ,	 0 
	 50 ,	 0 
	 50 ,	 0 
	 50 ,	 0 
	 50 ,	 0 
	 50 ,	 0 
	 50 ,	 0 
	 50 ,	 0 
	 50 ,	 0 
	 50 ,	 0 
	 50 ,	 0 
	 50 ,	 0 
	 50 ,	 0 
	 50 ,	 0 
	 50 ,	 0 
	 50 ,	 0 
	 50 ,	 0 
	 50 ,	 0 
END
BEGIN
	 50 ,	 0 
	 50 ,	 0 
	 50 ,	 0 
	 50 ,	 0 
	 50 ,	 0 
	 50 ,	 0 
	 50 ,	 0 
	 50 ,	 0 
	 50 ,	 0 
	 50 ,	 0 
	 50 ,	 0 
	 50 ,	 0 
	 50 ,	 0 
	 50 ,	 0 
	 50 ,	 0 
	 50 ,	 0 
	 50 ,	 0 
	 50 ,	 0 
	 50 ,	 0 
	 50 ,	 0 
	 50 ,	 0 
END
